! Downloaded from Microwaves101.com
! AWR Design Environment (5983) Wed Feb 13 11:12:28 2013
! Ports: 2, Freqs: 91
# GHz S MA R 50
!-----------------------------------------------------------------------------
!Freq         MagS11       AngS11       MagS21       AngS21       MagS12       AngS12       MagS22       AngS22
 50           0.64         90           0.32         90           0.32         90           0.64         90          
 51           0.64         89.87        0.32         89.87        0.32         90.13        0.64         90.13       
 52           0.65         89.7         0.33         89.7         0.32         90.3         0.65         90.3        
 53           0.65         89.5         0.33         89.5         0.33         90.5         0.65         90.5        
 54           0.66         89.25        0.33         89.25        0.33         90.75        0.66         90.75       
 55           0.67         88.97        0.34         88.97        0.33         91.03        0.67         91.03       
 56           0.67         88.65        0.34         88.65        0.34         91.35        0.67         91.35       
 57           0.68         88.29        0.34         88.29        0.34         91.71        0.68         91.71       
 58           0.69         87.9         0.35         87.9         0.34         92.1         0.69         92.1        
 59           0.7          87.46        0.35         87.46        0.35         92.54        0.7          92.54       
 60           0.7          86.99        0.35         86.99        0.35         93.01        0.7          93.01       
 61           0.71         86.47        0.36         86.47        0.35         93.53        0.71         93.53       
 62           0.72         85.92        0.36         85.92        0.36         94.08        0.72         94.08       
 63           0.72         85.33        0.36         85.33        0.36         94.67        0.72         94.67       
 64           0.73         84.7         0.37         84.7         0.36         95.3         0.73         95.3        
 65           0.74         84.04        0.37         84.04        0.37         95.96        0.74         95.96       
 66           0.74         83.34        0.37         83.34        0.37         96.66        0.74         96.66       
 67           0.75         82.6         0.38         82.6         0.37         97.4         0.75         97.4        
 68           0.76         81.82        0.38         81.82        0.38         98.18        0.76         98.18       
 69           0.76         81.01        0.38         81.01        0.38         98.99        0.76         98.99       
 70           0.77         80.16        0.39         80.16        0.38         99.84        0.77         99.84       
 71           0.77         79.28        0.39         79.28        0.39         100.72       0.77         100.72      
 72           0.78         78.36        0.39         78.36        0.39         101.64       0.78         101.64      
 73           0.78         77.41        0.39         77.41        0.39         102.59       0.78         102.59      
 74           0.79         76.42        0.4          76.42        0.39         103.58       0.79         103.58      
 75           0.79         75.4         0.4          75.4         0.4          104.6        0.79         104.6       
 76           0.8          74.35        0.4          74.35        0.4          105.65       0.8          105.65      
 77           0.8          73.26        0.4          73.26        0.4          106.74       0.8          106.74      
 78           0.81         72.13        0.41         72.13        0.4          107.87       0.81         107.87      
 79           0.81         70.98        0.41         70.98        0.4          109.02       0.81         109.02      
 80           0.81         69.78        0.41         69.78        0.41         110.22       0.81         110.22      
 81           0.81         68.56        0.41         68.56        0.41         111.44       0.81         111.44      
 82           0.82         67.3         0.41         67.3         0.41         112.7        0.82         112.7       
 83           0.82         66           0.41         66           0.41         114          0.82         114         
 84           0.82         64.67        0.41         64.67        0.41         115.33       0.82         115.33      
 85           0.82         63.3         0.41         63.3         0.41         116.7        0.82         116.7       
 86           0.82         61.9         0.41         61.9         0.41         118.1        0.82         118.1       
 87           0.82         60.46        0.41         60.46        0.41         119.54       0.82         119.54      
 88           0.82         58.99        0.41         58.99        0.41         121.01       0.82         121.01      
 89           0.82         57.47        0.41         57.47        0.41         122.53       0.82         122.53      
 90           0.82         55.92        0.41         55.92        0.41         124.08       0.82         124.08      
 91           0.82         54.33        0.41         54.33        0.41         125.67       0.82         125.67      
 92           0.82         52.7         0.41         52.7         0.41         127.3        0.82         127.3       
 93           0.82         51.02        0.41         51.02        0.41         128.98       0.82         128.98      
 94           0.82         49.3         0.41         49.3         0.41         130.7        0.82         130.7       
 95           0.81         47.54        0.41         47.54        0.41         132.46       0.81         132.46      
 96           0.81         45.73        0.41         45.73        0.41         134.27       0.81         134.27      
 97           0.81         43.88        0.41         43.88        0.4          136.12       0.81         136.12      
 98           0.8          41.97        0.4          41.97        0.4          138.03       0.8          138.03      
 99           0.8          40.02        0.4          40.02        0.4          139.98       0.8          139.98      
 100          0.79         38.01        0.4          38.01        0.4          141.99       0.79         141.99      
 101          0.79         35.95        0.4          35.95        0.4          144.05       0.79         144.05      
 102          0.79         33.83        0.4          33.83        0.39         146.17       0.79         146.17      
 103          0.78         31.65        0.39         31.65        0.39         148.35       0.78         148.35      
 104          0.78         29.41        0.39         29.41        0.39         150.59       0.78         150.59      
 105          0.77         27.11        0.39         27.11        0.38         152.89       0.77         152.89      
 106          0.76         24.74        0.38         24.74        0.38         155.26       0.76         155.26      
 107          0.76         22.3         0.38         22.3         0.38         157.7        0.76         157.7       
 108          0.75         19.79        0.38         19.79        0.38         160.21       0.75         160.21      
 109          0.75         17.2         0.38         17.2         0.37         162.8        0.75         162.8       
 110          0.74         14.54        0.37         14.54        0.37         165.46       0.74         165.46      
 111          0.74         11.8         0.37         11.8         0.37         168.2        0.74         168.2       
 112          0.73         8.98         0.37         8.98         0.36         171.02       0.73         171.02      
 113          0.72         6.08         0.36         6.08         0.36         173.92       0.72         173.92      
 114          0.72         3.09         0.36         3.09         0.36         176.91       0.72         176.91      
 115          0.71         0.02         0.36         0.02         0.36         179.98       0.71         179.98      
 116          0.71        -3.13         0.36        -3.13         0.36        -176.87       0.71        -176.87      
 117          0.71        -6.37         0.36        -6.37         0.35        -173.63       0.71        -173.63      
 118          0.7         -9.69         0.35        -9.69         0.35        -170.31       0.7         -170.31      
 119          0.7         -13.1         0.35        -13.1         0.35        -166.9        0.7         -166.9       
 120          0.7         -16.58        0.35        -16.58        0.35        -163.42       0.7         -163.42      
 121          0.7         -20.13        0.35        -20.13        0.35        -159.87       0.7         -159.87      
 122          0.7         -23.75        0.35        -23.75        0.35        -156.25       0.7         -156.25      
 123          0.7         -27.43        0.35        -27.43        0.35        -152.57       0.7         -152.57      
 124          0.7         -31.16        0.35        -31.16        0.35        -148.84       0.7         -148.84      
 125          0.71        -34.93        0.36        -34.93        0.35        -145.07       0.71        -145.07      
 126          0.71        -38.74        0.36        -38.74        0.36        -141.26       0.71        -141.26      
 127          0.72        -42.57        0.36        -42.57        0.36        -137.43       0.72        -137.43      
 128          0.73        -46.42        0.37        -46.42        0.36        -133.58       0.73        -133.58      
 129          0.74        -50.26        0.37        -50.26        0.37        -129.74       0.74        -129.74      
 130          0.75        -54.1         0.38        -54.1         0.37        -125.9        0.75        -125.9       
 131          0.76        -57.91        0.38        -57.91        0.38        -122.09       0.76        -122.09      
 132          0.78        -61.69        0.39        -61.69        0.39        -118.31       0.78        -118.31      
 133          0.79        -65.44        0.4         -65.44        0.4         -114.56       0.79        -114.56      
 134          0.81        -69.14        0.41        -69.14        0.4         -110.86       0.81        -110.86      
 135          0.83        -72.78        0.42        -72.78        0.41        -107.22       0.83        -107.22      
 136          0.85        -76.36        0.43        -76.36        0.42        -103.64       0.85        -103.64      
 137          0.87        -79.87        0.44        -79.87        0.44        -100.13       0.87        -100.13      
 138          0.9         -83.32        0.45        -83.32        0.45        -96.68        0.9         -96.68       
 139          0.92        -86.7         0.46        -86.7         0.46        -93.3         0.92        -93.3        
 140          0.95        -90           0.48        -90           0.47        -90           0.95        -90          
